!Keysight Technologies,E5080A,MY55200716,A.11.70.00
!Date: Wednesday, December 21, 2022 15:36:06
!Correction: S11(Off) 
!S1P File: Measurement: S11:
# Hz S  RI   R 50
1000000000 0.6944474 -0.63043886
1000390625 0.68503624 -0.64378518
1000781250 0.67306787 -0.65147805
1001171875 0.66377497 -0.66155481
1001562500 0.65447783 -0.67110741
1001953125 0.64297563 -0.68277436
1002343750 0.63316751 -0.69280821
1002734375 0.62220192 -0.70037961
1003125000 0.61017406 -0.70996028
1003515625 0.60072273 -0.71914518
1003906250 0.5889039 -0.72843105
1004296875 0.57863736 -0.73802817
1004687500 0.56711608 -0.74580139
1005078125 0.55340672 -0.75436807
1005468750 0.54312825 -0.76304722
1005859375 0.53085017 -0.77082592
1006250000 0.51996839 -0.77805573
1006640625 0.50733984 -0.78717709
1007031250 0.49451518 -0.79346287
1007421875 0.48384374 -0.80164522
1007812500 0.47103816 -0.80867469
1008203125 0.45788866 -0.81497037
1008593750 0.4470118 -0.82105649
1008984375 0.43382293 -0.82841057
1009375000 0.42096043 -0.83394873
1009765625 0.40895954 -0.83920968
1010156250 0.39474183 -0.84659111
1010546875 0.38104203 -0.85195851
1010937500 0.36666155 -0.85722417
1011328125 0.35543063 -0.86393392
1011718750 0.34114113 -0.86809349
1012109375 0.32817426 -0.8737008
1012500000 0.31464159 -0.87688679
1012890625 0.30063742 -0.88375962
1013281250 0.28757128 -0.88701051
1013671875 0.27362359 -0.89091784
1014062500 0.25962502 -0.89466369
1014453125 0.24520187 -0.89895803
1014843750 0.23353386 -0.90099853
1015234375 0.21846214 -0.90633565
1015625000 0.2049084 -0.90861779
1016015625 0.19064558 -0.91044992
1016406250 0.1778736 -0.91326702
1016796875 0.16068643 -0.91625553
1017187500 0.14703217 -0.91919982
1017578125 0.13246851 -0.92197722
1017968750 0.11932557 -0.92310476
1018359375 0.10458689 -0.92468584
1018750000 0.09137851 -0.92593372
1019140625 0.07618729 -0.92760879
1019531250 0.062079791 -0.92642802
1019921875 0.04873012 -0.92913926
1020312500 0.03281619 -0.92796612
1020703125 0.018505394 -0.92845362
1021093750 0.0060354774 -0.93046188
1021484375 -0.0089764968 -0.92839283
1021875000 -0.024559686 -0.9277305
1022265625 -0.039331015 -0.92686617
1022656250 -0.053744256 -0.92650002
1023046875 -0.06678097 -0.92511797
1023437500 -0.080606036 -0.9248203
1023828125 -0.097264871 -0.92180407
1024218750 -0.11079208 -0.92072719
1024609375 -0.12442784 -0.91783154
1025000000 -0.13816832 -0.91626853
1025390625 -0.15326233 -0.91506749
1025781250 -0.16726978 -0.91166407
1026171875 -0.1816157 -0.90834439
1026562500 -0.19407432 -0.90486211
1026953125 -0.2087784 -0.90284258
1027343750 -0.22337578 -0.89765263
1027734375 -0.23678595 -0.89463711
1028125000 -0.25029078 -0.89110053
1028515625 -0.26593855 -0.88614279
1028906250 -0.27731365 -0.88309491
1029296875 -0.29075027 -0.87650073
1029687500 -0.3051956 -0.8728978
1030078125 -0.31878924 -0.86789656
1030468750 -0.33158863 -0.86219716
1030859375 -0.34560657 -0.85671598
1031250000 -0.35859737 -0.85236031
1031640625 -0.37225521 -0.8458342
1032031250 -0.38471517 -0.84006488
1032421875 -0.39886007 -0.83189666
1032812500 -0.41179374 -0.82733029
1033203125 -0.423641 -0.81938076
1033593750 -0.43599126 -0.81243986
1033984375 -0.44865075 -0.80624628
1034375000 -0.46210206 -0.79775321
1034765625 -0.47376567 -0.79322004
1035156250 -0.48632056 -0.78395736
1035546875 -0.49804881 -0.77619702
1035937500 -0.51016986 -0.76828927
1036328125 -0.52080375 -0.75959826
1036718750 -0.53484309 -0.75242472
1037109375 -0.54482329 -0.74321532
1037500000 -0.55553728 -0.73494601
1037890625 -0.56749004 -0.72551572
1038281250 -0.57855278 -0.71709901
1038671875 -0.58986562 -0.70719182
1039062500 -0.60171312 -0.69761229
1039453125 -0.61162865 -0.68775707
1039843750 -0.62224513 -0.67848974
1040234375 -0.6315276 -0.66967225
1040625000 -0.64222687 -0.65907371
1041015625 -0.65376276 -0.6496852
1041406250 -0.66234004 -0.63822991
1041796875 -0.67268348 -0.62849909
1042187500 -0.68198091 -0.61802876
1042578125 -0.69061452 -0.60667676
1042968750 -0.70043862 -0.59620798
1043359375 -0.70981789 -0.58383656
1043750000 -0.7189154 -0.57340354
1044140625 -0.72741789 -0.5631727
1044531250 -0.7371192 -0.5506714
1044921875 -0.74463421 -0.5386399
1045312500 -0.75317669 -0.52706337
1045703125 -0.76080626 -0.51591837
1046093750 -0.76834339 -0.50229478
1046484375 -0.77585781 -0.49179971
1046875000 -0.7845602 -0.48032105
1047265625 -0.79131317 -0.46668807
1047656250 -0.79888606 -0.45509535
1048046875 -0.80568022 -0.44269937
1048437500 -0.81262791 -0.42986873
1048828125 -0.81843638 -0.41740572
1049218750 -0.82505727 -0.40496248
1049609375 -0.83056068 -0.39241195
1050000000 -0.83707196 -0.3779397
1050390625 -0.84191912 -0.3659851
1050781250 -0.84761691 -0.35192844
1051171875 -0.8527413 -0.33984536
1051562500 -0.85934204 -0.3263002
1051953125 -0.86322922 -0.31334805
1052343750 -0.86851907 -0.29908097
1052734375 -0.87241781 -0.28558794
1053125000 -0.87676275 -0.27235693
1053515625 -0.87994349 -0.25903177
1053906250 -0.8838641 -0.2447997
1054296875 -0.88793379 -0.23167998
1054687500 -0.89153683 -0.21696617
1055078125 -0.89531147 -0.20459366
1055468750 -0.8987 -0.19005212
1055859375 -0.90008038 -0.17556652
1056250000 -0.90481776 -0.16126685
1056640625 -0.90602553 -0.14789793
1057031250 -0.90835202 -0.13438873
1057421875 -0.91043007 -0.12023591
1057812500 -0.91192603 -0.10665969
1058203125 -0.91378462 -0.091305092
1058593750 -0.91408092 -0.078372508
1058984375 -0.9154498 -0.064341702
1059375000 -0.9165929 -0.050405651
1059765625 -0.91691345 -0.035828467
1060156250 -0.91717947 -0.021824826
1060546875 -0.91777527 -0.0076815644
1060937500 -0.91750109 0.0060689705
1061328125 -0.91730309 0.020219006
1061718750 -0.91734749 0.033871464
1062109375 -0.91632867 0.049120773
1062500000 -0.91560102 0.062814131
1062890625 -0.9154101 0.076874122
1063281250 -0.91287273 0.090526499
1063671875 -0.91190243 0.10466518
1064062500 -0.910496 0.11873615
1064453125 -0.90878588 0.13234289
1064843750 -0.90653509 0.14619613
1065234375 -0.90403771 0.15980983
1065625000 -0.90143955 0.17440768
1066015625 -0.89841652 0.18775216
1066406250 -0.895652 0.20111868
1066796875 -0.89209688 0.21485892
1067187500 -0.88964581 0.22820783
1067578125 -0.88554788 0.24233449
1067968750 -0.88328332 0.25506637
1068359375 -0.87873 0.2694521
1068750000 -0.87376153 0.28204411
1069140625 -0.87020165 0.29477105
1069531250 -0.8668825 0.30856827
1069921875 -0.86075145 0.32172909
1070312500 -0.85580748 0.33463499
1070703125 -0.85076982 0.34698674
1071093750 -0.84554183 0.36015579
1071484375 -0.84036928 0.37307024
1071875000 -0.83410019 0.38572246
1072265625 -0.82805741 0.39883006
1072656250 -0.82208556 0.41170835
1073046875 -0.81646186 0.42316437
1073437500 -0.80942762 0.43524849
1073828125 -0.80350173 0.44827747
1074218750 -0.7962693 0.46012893
1074609375 -0.79014057 0.47202069
1075000000 -0.78258038 0.48407856
1075390625 -0.77475077 0.4963223
1075781250 -0.76702142 0.50794792
1076171875 -0.75997043 0.51909631
1076562500 -0.7519418 0.53077495
1076953125 -0.74406165 0.54200894
1077343750 -0.73571378 0.55260265
1077734375 -0.72785217 0.5644446
1078125000 -0.71910256 0.57440591
1078515625 -0.71120006 0.58620554
1078906250 -0.70153189 0.59589916
1079296875 -0.69260079 0.60725158
1079687500 -0.68282831 0.61785436
1080078125 -0.67443562 0.62765849
1080468750 -0.66574126 0.63848215
1080859375 -0.65461648 0.64738727
1081250000 -0.64555603 0.65756673
1081640625 -0.63581389 0.66785008
1082031250 -0.62560785 0.67693657
1082421875 -0.61616027 0.68679255
1082812500 -0.60525602 0.69533312
1083203125 -0.59508806 0.70455706
1083593750 -0.58460474 0.7131831
1083984375 -0.57364631 0.72191495
1084375000 -0.56348598 0.73103231
1084765625 -0.55247355 0.73882121
1085156250 -0.54184377 0.74725449
1085546875 -0.52993006 0.75487906
1085937500 -0.51920033 0.76331663
1086328125 -0.50751203 0.77169937
1086718750 -0.49657103 0.77819592
1087109375 -0.48594925 0.7851764
1087500000 -0.47350413 0.79337472
1087890625 -0.46093696 0.8006056
1088281250 -0.44985732 0.80660081
1088671875 -0.43751407 0.81373256
1089062500 -0.42652631 0.82008922
1089453125 -0.41316134 0.82699221
1089843750 -0.4016118 0.83199102
1090234375 -0.38823396 0.83888251
1090625000 -0.3768377 0.84528434
1091015625 -0.36395705 0.8504191
1091406250 -0.35071898 0.85590786
1091796875 -0.33872697 0.86146462
1092187500 -0.32605106 0.86515081
1092578125 -0.31320283 0.87139815
1092968750 -0.29993337 0.87494367
1093359375 -0.28734243 0.88017058
1093750000 -0.27546421 0.88416439
1094140625 -0.26202041 0.88806367
1094531250 -0.2484865 0.8924647
1094921875 -0.23561999 0.89582926
1095312500 -0.22265877 0.89901763
1095703125 -0.20917048 0.90348864
1096093750 -0.19593775 0.9060114
1096484375 -0.18234153 0.90917522
1096875000 -0.16866948 0.911183
1097265625 -0.15576203 0.91344053
1097656250 -0.14264934 0.91671479
1098046875 -0.12886484 0.91801167
1098437500 -0.11530799 0.9205364
1098828125 -0.10198046 0.92170042
1099218750 -0.086988591 0.92278069
1099609375 -0.074515827 0.92438954
1100000000 -0.060957003 0.926337
1100390625 -0.048223019 0.92707878
1100781250 -0.034009587 0.92733258
1101171875 -0.02032405 0.92863202
1101562500 -0.0066241887 0.92852509
1101953125 0.0077177431 0.92890674
1102343750 0.020226106 0.92969751
1102734375 0.034518272 0.92885023
1103125000 0.048518933 0.92800802
1103515625 0.06100883 0.92713791
1103906250 0.075044312 0.92607301
1104296875 0.087961324 0.9255746
1104687500 0.10266326 0.92347306
1105078125 0.11487845 0.92246163
1105468750 0.12953293 0.91954237
1105859375 0.14231312 0.91879803
1106250000 0.15558875 0.91700339
1106640625 0.1684275 0.9143607
1107031250 0.18232222 0.91208786
1107421875 0.19599035 0.90973407
1107812500 0.20909606 0.90710062
1108203125 0.2223981 0.90366042
1108593750 0.2359492 0.8995285
1108984375 0.24880034 0.89658785
1109375000 0.2618334 0.89296997
1109765625 0.27423504 0.88911819
1110156250 0.28773561 0.88526338
1110546875 0.30019933 0.88112861
1110937500 0.31336543 0.87546676
1111328125 0.32698205 0.87210739
1111718750 0.33922249 0.86744821
1112109375 0.35159564 0.86197269
1112500000 0.36451837 0.85674125
1112890625 0.37644163 0.85219413
1113281250 0.38905123 0.84628892
1113671875 0.40230063 0.84151447
1114062500 0.41374847 0.83446479
1114453125 0.42570192 0.82887036
1114843750 0.43910447 0.82278907
1115234375 0.45069492 0.81765145
1115625000 0.46285549 0.81038386
1116015625 0.47359389 0.80374044
1116406250 0.4865762 0.79574555
1116796875 0.49749327 0.78847915
1117187500 0.50825626 0.78161395
1117578125 0.51959753 0.77453738
1117968750 0.53188401 0.76587045
1118359375 0.54263562 0.75973755
1118750000 0.55339712 0.75262243
1119140625 0.56441623 0.74289519
1119531250 0.57580698 0.73377734
1119921875 0.58561516 0.72535962
1120312500 0.59685111 0.71745634
1120703125 0.6077286 0.70856273
1121093750 0.61753035 0.69877595
1121484375 0.62787539 0.69125241
1121875000 0.63702202 0.68223858
1122265625 0.64705628 0.67265844
1122656250 0.65724421 0.66362047
1123046875 0.66655594 0.65284449
1123437500 0.67637759 0.64408624
1123828125 0.68503398 0.63449401
1124218750 0.69385165 0.62332672
1124609375 0.70309836 0.61326033
1125000000 0.71362114 0.60349971
1125390625 0.7208786 0.59395182
1125781250 0.72954834 0.58272845
1126171875 0.7380206 0.57100487
1126562500 0.74654186 0.56142622
1126953125 0.75632334 0.54896694
1127343750 0.76335198 0.53916186
1127734375 0.77084017 0.52878541
1128125000 0.77864242 0.51613408
1128515625 0.7862379 0.50398052
1128906250 0.79274756 0.4935132
1129296875 0.79996884 0.48179543
1129687500 0.8062405 0.46982098
1130078125 0.81448919 0.45791891
1130468750 0.82042754 0.44681892
1130859375 0.82701546 0.43365836
1131250000 0.83413732 0.42219228
1131640625 0.84051818 0.40967286
1132031250 0.84460139 0.39765915
1132421875 0.85105193 0.38493273
1132812500 0.85755283 0.37289873
1133203125 0.86147666 0.36057571
1133593750 0.86819667 0.34803116
1133984375 0.87298924 0.3340171
1134375000 0.87758034 0.32296342
1134765625 0.88140118 0.30920765
1135156250 0.88701302 0.29557183
1135546875 0.89149296 0.2833685
1135937500 0.89446491 0.26953769
1136328125 0.89864963 0.25630224
1136718750 0.90230137 0.24427225
1137109375 0.90653056 0.22937751
1137500000 0.90935546 0.21798974
1137890625 0.91055256 0.20340377
1138281250 0.91438943 0.1908365
1138671875 0.91800886 0.17624414
1139062500 0.92153978 0.16230278
1139453125 0.92252898 0.14895035
1139843750 0.92344236 0.13625535
1140234375 0.92646319 0.12268852
1140625000 0.92979068 0.10895389
1141015625 0.92947263 0.094582863
1141406250 0.93024302 0.081277229
1141796875 0.93149155 0.067101672
1142187500 0.93182111 0.053538635
1142578125 0.9335146 0.039055519
1142968750 0.93352449 0.02624793
1143359375 0.93399328 0.012489499
1143750000 0.93486482 -0.0018608208
1144140625 0.9334867 -0.016888598
1144531250 0.93374109 -0.029520351
1144921875 0.93262029 -0.043027055
1145312500 0.93155968 -0.055710163
1145703125 0.93045044 -0.069473684
1146093750 0.92942172 -0.084481105
1146484375 0.92799479 -0.099682376
1146875000 0.9255414 -0.11174891
1147265625 0.9245913 -0.12560685
1147656250 0.92303264 -0.13855341
1148046875 0.92113799 -0.15277176
1148437500 0.91984773 -0.16734053
1148828125 0.91596061 -0.17972353
1149218750 0.91327381 -0.19320451
1149609375 0.90937465 -0.20719819
1150000000 0.90600771 -0.21960366
1150390625 0.90367359 -0.23477289
1150781250 0.89910585 -0.24837661
1151171875 0.89604175 -0.25922984
1151562500 0.8907221 -0.27350864
1151953125 0.88696623 -0.28590494
1152343750 0.8830601 -0.30104566
1152734375 0.87812221 -0.31261671
1153125000 0.87328744 -0.32659593
1153515625 0.86918855 -0.33999047
1153906250 0.86322159 -0.35199842
1154296875 0.85677701 -0.36599821
1154687500 0.85218924 -0.37672341
1155078125 0.84623581 -0.39030167
1155468750 0.8397916 -0.40227962
1155859375 0.83385575 -0.41629976
1156250000 0.82857299 -0.42805743
1156640625 0.82065672 -0.44019592
1157031250 0.81413543 -0.45251724
1157421875 0.80714554 -0.46438438
1157812500 0.8001641 -0.47628257
1158203125 0.7925241 -0.48866826
1158593750 0.7857511 -0.50002277
1158984375 0.77590048 -0.51019454
1159375000 0.76981425 -0.52415615
1159765625 0.76128095 -0.53414214
1160156250 0.75224835 -0.54474854
1160546875 0.74598515 -0.55645758
1160937500 0.73703152 -0.56838262
1161328125 0.7275337 -0.57999301
1161718750 0.71844155 -0.5901463
1162109375 0.71008903 -0.59980345
1162500000 0.70171738 -0.61193711
1162890625 0.69193918 -0.62072188
1163281250 0.68252897 -0.6315558
1163671875 0.67266297 -0.64247537
1164062500 0.66320688 -0.65252537
1164453125 0.6524446 -0.66263461
1164843750 0.64266837 -0.67213076
1165234375 0.63140637 -0.68249547
1165625000 0.62086278 -0.68969917
1166015625 0.60886055 -0.69958764
1166406250 0.59929085 -0.70800698
1166796875 0.58755553 -0.71803886
1167187500 0.5770219 -0.72568733
1167578125 0.56717616 -0.73451865
1167968750 0.55505157 -0.74284363
1168359375 0.54448432 -0.75296307
1168750000 0.53304321 -0.75970542
1169140625 0.52179921 -0.76621979
1169531250 0.50946283 -0.77517021
1169921875 0.4976984 -0.78237128
1170312500 0.48546892 -0.79077494
1170703125 0.47309545 -0.79655343
1171093750 0.4600946 -0.80486727
1171484375 0.44873077 -0.81117034
1171875000 0.43595627 -0.817586
1172265625 0.42354435 -0.82426965
1172656250 0.41078064 -0.83015078
1173046875 0.39896923 -0.83534157
1173437500 0.38598666 -0.84185392
1173828125 0.37243935 -0.84824425
1174218750 0.3595255 -0.85374475
1174609375 0.34567183 -0.85830814
1175000000 0.33291882 -0.86320227
1175390625 0.32020849 -0.86804795
1175781250 0.3066408 -0.8719362
1176171875 0.2926459 -0.87674278
1176562500 0.28011128 -0.88180918
1176953125 0.26579809 -0.88498759
1177343750 0.25311354 -0.88801944
1177734375 0.23793511 -0.89344966
1178125000 0.22530736 -0.89650196
1178515625 0.21138911 -0.89912939
1178906250 0.19819929 -0.90220201
1179296875 0.18313444 -0.9064905
1179687500 0.1705332 -0.90806407
1180078125 0.15555626 -0.91017962
1180468750 0.14256001 -0.91332412
1180859375 0.12879255 -0.91437995
1181250000 0.11442025 -0.9178406
1181640625 0.099146239 -0.91776663
1182031250 0.084987022 -0.9187879
1182421875 0.071579926 -0.92032766
1182812500 0.057824124 -0.92161924
1183203125 0.043324146 -0.92172045
1183593750 0.030176029 -0.92138988
1183984375 0.013826961 -0.92277342
1184375000 0.00041396209 -0.92204881
1184765625 -0.012750013 -0.92118591
1185156250 -0.027790464 -0.92152822
1185546875 -0.041609306 -0.92184716
1185937500 -0.055920191 -0.92121166
1186328125 -0.070321001 -0.91934264
1186718750 -0.084758006 -0.91810411
1187109375 -0.098113559 -0.91743296
1187500000 -0.11261594 -0.91397893
1187890625 -0.12543593 -0.91207713
1188281250 -0.13949384 -0.91181481
1188671875 -0.15381187 -0.90895832
1189062500 -0.16916212 -0.90537792
1189453125 -0.18167982 -0.90272862
1189843750 -0.19654493 -0.90140575
1190234375 -0.21004027 -0.896981
1190625000 -0.22385585 -0.8922776
1191015625 -0.23735315 -0.88913685
1191406250 -0.25184518 -0.88545513
1191796875 -0.26411408 -0.88166922
1192187500 -0.27910107 -0.87778664
1192578125 -0.29142997 -0.87250561
1192968750 -0.30429178 -0.86782026
1193359375 -0.31892377 -0.86332268
1193750000 -0.33102909 -0.8577854
1194140625 -0.34443712 -0.85241985
1194531250 -0.35888791 -0.84740722
1194921875 -0.3699508 -0.8421371
1195312500 -0.38377535 -0.8362599
1195703125 -0.39648318 -0.82898301
1196093750 -0.40962458 -0.82265085
1196484375 -0.42281514 -0.816769
1196875000 -0.43520138 -0.80969024
1197265625 -0.44722089 -0.80372977
1197656250 -0.45941395 -0.79670465
1198046875 -0.47062665 -0.7891047
1198437500 -0.48293567 -0.78117782
1198828125 -0.49534374 -0.77339387
1199218750 -0.50756544 -0.76550764
1199609375 -0.5184409 -0.75793082
1200000000 -0.53028512 -0.74933809
1200390625 -0.54148763 -0.74144191
1200781250 -0.55423784 -0.73349422
1201171875 -0.56562173 -0.72356564
1201562500 -0.57609105 -0.71560347
1201953125 -0.58670372 -0.7057755
1202343750 -0.59767884 -0.69652355
1202734375 -0.60822195 -0.68752837
1203125000 -0.61872244 -0.6779018
1203515625 -0.62922984 -0.66780758
1203906250 -0.6389572 -0.65870571
1204296875 -0.64878559 -0.64854884
1204687500 -0.65909278 -0.63772291
1205078125 -0.66811788 -0.62770194
1205468750 -0.67806709 -0.61803663
1205859375 -0.68856943 -0.60669428
1206250000 -0.69728887 -0.59642553
1206640625 -0.70589733 -0.58490419
1207031250 -0.71488035 -0.57410008
1207421875 -0.7241528 -0.56332755
1207812500 -0.73242015 -0.55228496
1208203125 -0.74107414 -0.53976703
1208593750 -0.74900943 -0.52947301
1208984375 -0.75773621 -0.51817691
1209375000 -0.76512504 -0.50624979
1209765625 -0.77285236 -0.49419844
1210156250 -0.77985275 -0.48227638
1210546875 -0.78704041 -0.47000235
1210937500 -0.79432023 -0.45745873
1211328125 -0.80071455 -0.44581899
1211718750 -0.80862939 -0.43241829
1212109375 -0.81458753 -0.41996181
1212500000 -0.82027799 -0.40710911
1212890625 -0.82780385 -0.39426607
1213281250 -0.8331871 -0.38199016
1213671875 -0.83869433 -0.368848
1214062500 -0.84462959 -0.35569945
1214453125 -0.84943771 -0.34242597
1214843750 -0.85502207 -0.32998598
1215234375 -0.86027479 -0.31657991
1215625000 -0.86437607 -0.30337009
1216015625 -0.86939806 -0.28967297
1216406250 -0.87456322 -0.27556849
1216796875 -0.87808692 -0.26256922
1217187500 -0.88129282 -0.24869102
1217578125 -0.88619483 -0.23506013
1217968750 -0.88900793 -0.22231539
1218359375 -0.89234841 -0.20821376
1218750000 -0.89508283 -0.1945044
1219140625 -0.89887971 -0.18081267
1219531250 -0.90085548 -0.16702667
1219921875 -0.90353388 -0.15311837
1220312500 -0.9055078 -0.13879277
